
T2690 000:002 SEGGER J-Link V6.16c Log File (0000ms, 0002ms total)
T2690 000:002 DLL Compiled: Jun 16 2017 18:14:49 (0000ms, 0002ms total)
T2690 000:002 Logging started @ 2017-09-24 10:07 (0000ms, 0002ms total)
T2690 000:002 JLINK_SetWarnOutHandler(...) (0000ms, 0002ms total)
T2690 000:002 JLINK_OpenEx(...)
Firmware: J-Link V9 compiled Dec  2 2017 15:35:20
Hardware: V9.20
S/N: 269200585
Feature(s): GDB, RDI, FlashBP, FlashDL, JFlash, RDDIWEBSRV Webserver running on local port 19080 (0013ms, 0015ms total)
T2690 000:002   returns O.K. (0013ms, 0015ms total)
T2690 000:015 JLINK_GetEmuCaps()  returns 0xB9FF7BBF (0000ms, 0015ms total)
T2690 000:015 JLINK_TIF_GetAvailable(...) (0000ms, 0015ms total)
T2690 000:015 JLINK_SetErrorOutHandler(...) (0000ms, 0015ms total)
T2690 000:015 JLINK_ExecCommand("ProjectFile = "D:\git_remote\POWER-METER\2_workspace\test_firmware\JLinkSettings.ini"", ...).   returns 0x00 (0126ms, 0141ms total)
T2690 000:141 JLINK_ExecCommand("Device = STM32F103CB", ...). Device "STM32F103CB" selected.  returns 0x00 (0003ms, 0144ms total)
T2690 000:144 JLINK_ExecCommand("DisableConnectionTimeout", ...).   returns 0x01 (0000ms, 0144ms total)
T2690 000:144 JLINK_GetHardwareVersion()  returns 0x16760 (0000ms, 0144ms total)
T2690 000:144 JLINK_GetDLLVersion()  returns 61603 (0000ms, 0144ms total)
T2690 000:144 JLINK_GetFirmwareString(...) (0000ms, 0144ms total)
T2690 000:144 JLINK_GetDLLVersion()  returns 61603 (0000ms, 0144ms total)
T2690 000:144 JLINK_GetCompileDateTime() (0000ms, 0144ms total)
T2690 000:144 JLINK_GetFirmwareString(...) (0000ms, 0144ms total)
T2690 000:144 JLINK_GetHardwareVersion()  returns 0x16760 (0000ms, 0144ms total)
T2690 000:144 JLINK_TIF_Select(JLINKARM_TIF_SWD)  returns 0x00 (0000ms, 0144ms total)
T2690 000:144 JLINK_SetSpeed(10000) (0000ms, 0144ms total)
T2690 000:144 JLINK_GetId() >0x10B TIF>Found SW-DP with ID 0x1BA01477 >0x0D TIF> >0x28 TIF> >0x0D TIF> >0x28 TIF> >0x0D TIF> >0x28 TIF> >0x0D TIF> >0x28 TIF> >0x0D TIF> >0x21 TIF> >0x0D TIF> >0x28 TIF> >0x0D TIF> >0x28 TIF> >0x0D TIF> >0x28 TIF> >0x0D TIF> >0x21 TIF> >0x0D TIF> >0x21 TIF> >0x0D TIF> >0x28 TIF> >0x0D TIF> >0x21 TIF> >0x0D TIF> >0x21 TIF> >0x0D TIF> >0x28 TIF> >0x0D TIF> >0x21 TIF> >0x0D TIF> >0x21 TIF> >0x0D TIF> >0x28 TIF> >0x0D TIF> >0x21 TIF> >0x0D TIF> >0x21 TIF> >0x0D TIF> >0x28 TIF>
 >0x0D TIF> >0x21 TIF> >0x0D TIF> >0x21 TIF> >0x0D TIF> >0x28 TIF> >0x0D TIF> >0x21 TIF> >0x0D TIF> >0x21 TIF> >0x0D TIF> >0x28 TIF> >0x0D TIF> >0x21 TIF> >0x0D TIF> >0x21 TIF> >0x10B TIF>Found SW-DP with ID 0x1BA01477 >0x0D TIF> >0x28 TIF> >0x0D TIF> >0x28 TIF> >0x0D TIF> >0x28 TIF> >0x0D TIF> >0x28 TIF> >0x0D TIF> >0x21 TIF> >0x0D TIF> >0x28 TIF>Scanning APs, stopping at first AHB-AP found. >0x0D TIF> >0x28 TIF> >0x0D TIF> >0x21 TIF> >0x0D TIF> >0x21 TIF>AP[0] IDR: 0x14770011 (AHB-AP) >0x0D TIF>
 >0x28 TIF> >0x0D TIF> >0x21 TIF> >0x0D TIF> >0x21 TIF>AHB-AP ROM: 0xE00FF000 (Base addr. of first ROM table) >0x0D TIF> >0x28 TIF> >0x0D TIF> >0x28 TIF> >0x0D TIF> >0x28 TIF> >0x0D TIF> >0x21 TIF> >0x0D TIF> >0x21 TIF> >0x0D TIF> >0x28 TIF> >0x0D TIF> >0x21 TIF> >0x0D TIF> >0x21 TIF>CPUID reg: 0x411FC231. Implementer code: 0x41 (ARM)Found Cortex-M3 r1p1, Little endian. -- CPU_ReadMem(4 bytes @ 0xE000EDF0) -- CPU_WriteMem(4 bytes @ 0xE000EDF0) -- CPU_ReadMem(4 bytes @ 0xE0002000)
FPUnit: 6 code (BP) slots and 2 literal slots -- CPU_ReadMem(4 bytes @ 0xE000EDFC) -- CPU_WriteMem(4 bytes @ 0xE000EDFC) -- CPU_ReadMem(4 bytes @ 0xE0001000) -- CPU_WriteMem(4 bytes @ 0xE0001000) -- CPU_ReadMem(4 bytes @ 0xE000ED88) -- CPU_WriteMem(4 bytes @ 0xE000ED88) -- CPU_ReadMem(4 bytes @ 0xE000ED88) -- CPU_WriteMem(4 bytes @ 0xE000ED88)CoreSight components:ROMTbl[0] @ E00FF000 -- CPU_ReadMem(16 bytes @ 0xE00FF000) -- CPU_ReadMem(16 bytes @ 0xE000EFF0) -- CPU_ReadMem(16 bytes @ 0xE000EFE0)
ROMTbl[0][0]: E000E000, CID: B105E00D, PID: 001BB000 SCS -- CPU_ReadMem(16 bytes @ 0xE0001FF0) -- CPU_ReadMem(16 bytes @ 0xE0001FE0)ROMTbl[0][1]: E0001000, CID: B105E00D, PID: 001BB002 DWT -- CPU_ReadMem(16 bytes @ 0xE0002FF0) -- CPU_ReadMem(16 bytes @ 0xE0002FE0)ROMTbl[0][2]: E0002000, CID: B105E00D, PID: 000BB003 FPB -- CPU_ReadMem(16 bytes @ 0xE0000FF0) -- CPU_ReadMem(16 bytes @ 0xE0000FE0)ROMTbl[0][3]: E0000000, CID: B105E00D, PID: 001BB001 ITM -- CPU_ReadMem(16 bytes @ 0xE00FF010)
 -- CPU_ReadMem(16 bytes @ 0xE0040FF0) -- CPU_ReadMem(16 bytes @ 0xE0040FE0)ROMTbl[0][4]: E0040000, CID: B105900D, PID: 001BB923 TPIU-Lite >0x0D TIF> >0x21 TIF>  returns 0x1BA01477 (0022ms, 0166ms total)
T2690 000:166 JLINK_GetDLLVersion()  returns 61603 (0000ms, 0166ms total)
T2690 000:166 JLINK_CORE_GetFound()  returns 0x30000FF (0000ms, 0166ms total)
T2690 000:167 JLINK_GetDebugInfo(0x100 = JLINKARM_ROM_TABLE_ADDR_INDEX) -- Value=0xE00FF000  returns 0x00 (0000ms, 0166ms total)
T2690 000:167 JLINK_GetDebugInfo(0x100 = JLINKARM_ROM_TABLE_ADDR_INDEX) -- Value=0xE00FF000  returns 0x00 (0000ms, 0166ms total)
T2690 000:167 JLINK_GetDebugInfo(0x101 = JLINKARM_DEBUG_INFO_ETM_ADDR_INDEX) -- Value=0x00000000  returns 0x00 (0000ms, 0166ms total)
T2690 000:167 JLINK_ReadMemEx(0xE0041FF0, 0x0010 Bytes, ..., Flags = 0x02000004) -- CPU_ReadMem(16 bytes @ 0xE0041FF0) - Data: 00 00 00 00 00 00 00 00 00 00 00 00 00 00 00 00  returns 0x10 (0000ms, 0166ms total)
T2690 000:167 JLINK_GetDebugInfo(0x102 = JLINKARM_DEBUG_INFO_MTB_ADDR_INDEX) -- Value=0x00000000  returns 0x00 (0000ms, 0166ms total)
T2690 000:167 JLINK_GetDebugInfo(0x103 = JLINKARM_DEBUG_INFO_TPIU_ADDR_INDEX) -- Value=0xE0040000  returns 0x00 (0000ms, 0166ms total)
T2690 000:167 JLINK_GetDebugInfo(0x104 = JLINKARM_DEBUG_INFO_ITM_ADDR_INDEX) -- Value=0xE0000000  returns 0x00 (0000ms, 0166ms total)
T2690 000:167 JLINK_GetDebugInfo(0x105 = JLINKARM_DEBUG_INFO_DWT_ADDR_INDEX) -- Value=0xE0001000  returns 0x00 (0000ms, 0166ms total)
T2690 000:167 JLINK_GetDebugInfo(0x106 = JLINKARM_DEBUG_INFO_FPB_ADDR_INDEX) -- Value=0xE0002000  returns 0x00 (0000ms, 0166ms total)
T2690 000:167 JLINK_GetDebugInfo(0x107 = JLINKARM_DEBUG_INFO_NVIC_ADDR_INDEX) -- Value=0xE000E000  returns 0x00 (0000ms, 0166ms total)
T2690 000:167 JLINK_GetDebugInfo(0x10C = JLINKARM_DEBUG_INFO_DBG_ADDR_INDEX) -- Value=0xE000EDF0  returns 0x00 (0000ms, 0166ms total)
T2690 000:167 JLINK_ReadMemU32(0xE000ED00, 0x0001 Items, ...) -- CPU_ReadMem(4 bytes @ 0xE000ED00) - Data: 31 C2 1F 41  returns 0x01 (0000ms, 0166ms total)
T2690 000:167 JLINK_GetDebugInfo(0x10F = JLINKARM_DEBUG_INFO_HAS_CORTEX_M_SECURITY_EXT_INDEX) -- Value=0x00000000  returns 0x00 (0000ms, 0166ms total)
T2690 000:167 JLINK_SetResetType(JLINKARM_CM3_RESET_TYPE_NORMAL)  returns JLINKARM_CM3_RESET_TYPE_NORMAL (0000ms, 0166ms total)
T2690 000:167 JLINK_Reset() -- CPU is running -- CPU_WriteMem(4 bytes @ 0xE000EDF0) -- CPU is running -- CPU_WriteMem(4 bytes @ 0xE000EDFC) >0x35 TIF>Setting AIRCR.SYSRESETREQ -- CPU is running -- CPU_WriteMem(4 bytes @ 0xE000ED0C) >0x0D TIF> >0x28 TIF> -- CPU_ReadMem(4 bytes @ 0xE000ED0C) -- CPU_ReadMem(4 bytes @ 0xE000EDF0) -- CPU_ReadMem(4 bytes @ 0xE000EDF0) -- CPU_ReadMem(4 bytes @ 0xE000EDF0) -- CPU is running -- CPU_WriteMem(4 bytes @ 0xE000EDF0) -- CPU is running
 -- CPU_WriteMem(4 bytes @ 0xE000EDFC) -- CPU_ReadMem(4 bytes @ 0xE000EDF0) -- CPU_WriteMem(4 bytes @ 0xE0002000) -- CPU_ReadMem(4 bytes @ 0xE000EDFC) -- CPU_ReadMem(4 bytes @ 0xE0001000) (0063ms, 0229ms total)
T2690 000:230 JLINK_ReadReg(R15 (PC))  returns 0x20000108 (0000ms, 0229ms total)
T2690 000:230 JLINK_ReadReg(XPSR)  returns 0x01000000 (0000ms, 0229ms total)
T2690 000:230 JLINK_Halt()  returns 0x00 (0000ms, 0229ms total)
T2690 000:230 JLINK_ReadMemU32(0xE000EDF0, 0x0001 Items, ...) -- CPU_ReadMem(4 bytes @ 0xE000EDF0) - Data: 03 00 03 00  returns 0x01 (0000ms, 0229ms total)
T2690 000:230 JLINK_WriteU32(0xE000EDF0, 0xA05F0003) -- CPU_WriteMem(4 bytes @ 0xE000EDF0)  returns 0x00 (0001ms, 0230ms total)
T2690 000:231 JLINK_WriteU32(0xE000EDFC, 0x01000000) -- CPU_WriteMem(4 bytes @ 0xE000EDFC)  returns 0x00 (0000ms, 0230ms total)
T2690 000:231 JLINK_GetHWStatus(...)  returns 0x00 (0000ms, 0230ms total)
T2690 000:231 JLINK_GetNumBPUnits(Type = 0xFFFFFF00)  returns 0x06 (0000ms, 0230ms total)
T2690 000:231 JLINK_GetNumBPUnits(Type = 0xF0)  returns 0x2000 (0000ms, 0230ms total)
T2690 000:231 JLINK_GetNumWPUnits()  returns 0x04 (0000ms, 0230ms total)
T2690 000:231 JLINK_GetSpeed()  returns 0x1770 (0000ms, 0230ms total)
T2690 000:231 JLINK_ReadMemU32(0xE000E004, 0x0001 Items, ...) -- CPU_ReadMem(4 bytes @ 0xE000E004) - Data: 01 00 00 00  returns 0x01 (0001ms, 0231ms total)
T2690 000:232 JLINK_ReadMemU32(0xE000E004, 0x0001 Items, ...) -- CPU_ReadMem(4 bytes @ 0xE000E004) - Data: 01 00 00 00  returns 0x01 (0000ms, 0231ms total)
T2690 000:232 JLINK_WriteMemEx(0xE0001000, 0x001C Bytes, ..., Flags = 0x02000004) - Data: 01 00 00 00 00 00 00 00 00 00 00 00 00 00 00 00 ... -- CPU_WriteMem(28 bytes @ 0xE0001000)  returns 0x1C (0001ms, 0232ms total)
T2690 000:233 JLINK_ReadReg(R15 (PC))  returns 0x20000108 (0000ms, 0232ms total)
T2690 000:233 JLINK_ReadReg(XPSR)  returns 0x01000000 (0000ms, 0232ms total)
T2690 000:304 JLINK_SetResetType(JLINKARM_CM3_RESET_TYPE_NORMAL)  returns JLINKARM_CM3_RESET_TYPE_NORMAL (0000ms, 0232ms total)
T2690 000:304 JLINK_Reset() -- CPU_WriteMem(4 bytes @ 0xE000EDF0) -- CPU_WriteMem(4 bytes @ 0xE000EDFC) >0x35 TIF>Setting AIRCR.SYSRESETREQ -- CPU_WriteMem(4 bytes @ 0xE000ED0C) >0x0D TIF> >0x28 TIF> -- CPU_ReadMem(4 bytes @ 0xE000ED0C) -- CPU_ReadMem(4 bytes @ 0xE000EDF0) -- CPU_ReadMem(4 bytes @ 0xE000EDF0) -- CPU_ReadMem(4 bytes @ 0xE000EDF0) -- CPU_WriteMem(4 bytes @ 0xE000EDF0) -- CPU_WriteMem(4 bytes @ 0xE000EDFC) -- CPU_ReadMem(4 bytes @ 0xE000EDF0) -- CPU_WriteMem(4 bytes @ 0xE0002000)
 -- CPU_ReadMem(4 bytes @ 0xE000EDFC) -- CPU_ReadMem(4 bytes @ 0xE0001000) (0063ms, 0295ms total)
T2690 000:367 JLINK_ReadReg(R15 (PC))  returns 0x20000108 (0000ms, 0295ms total)
T2690 000:367 JLINK_ReadReg(XPSR)  returns 0x01000000 (0000ms, 0295ms total)
T2690 000:367 JLINK_ReadMemEx(0x20000108, 0x003C Bytes, ..., Flags = 0x02000000) -- CPU_ReadMem(128 bytes @ 0x20000100) -- Updating C cache (128 bytes @ 0x20000100) -- Read from C cache (60 bytes @ 0x20000108) - Data: 00 00 00 00 00 00 00 00 00 00 00 00 00 00 00 00 ...  returns 0x3C (0001ms, 0296ms total)
T2690 001:379 JLINK_ReadMemEx(0x08000796, 0x0002 Bytes, ..., Flags = 0x02000000) -- CPU_ReadMem(64 bytes @ 0x08000780) -- Updating C cache (64 bytes @ 0x08000780) -- Read from C cache (2 bytes @ 0x08000796) - Data: 00 21  returns 0x02 (0001ms, 0297ms total)
T2690 001:380 JLINK_ReadMemEx(0x08000798, 0x003C Bytes, ..., Flags = 0x02000000) -- CPU_ReadMem(64 bytes @ 0x080007C0) -- Updating C cache (64 bytes @ 0x080007C0) -- Read from C cache (60 bytes @ 0x08000798) - Data: 02 20 FF F7 F7 FE 00 BF FE E7 00 00 B4 07 00 08 ...  returns 0x3C (0000ms, 0297ms total)
T2BCC 001:534 JLINK_ReadMemEx(0x20000108, 0x0002 Bytes, ..., Flags = 0x02000000) -- Read from C cache (2 bytes @ 0x20000108) - Data: 00 00  returns 0x02 (0000ms, 0297ms total)
T2BCC 001:534 JLINK_SetBPEx(Addr = 0x08000784, Type = 0xFFFFFFF2)  returns 0x00000001 (0000ms, 0297ms total)
T2BCC 001:534 JLINK_Go() -- CPU_WriteMem(4 bytes @ 0xE0002000) -- CPU_ReadMem(4 bytes @ 0xE0001000) -- CPU_WriteMem(4 bytes @ 0xE0002008) -- CPU_WriteMem(4 bytes @ 0xE000200C) -- CPU_WriteMem(4 bytes @ 0xE0002010) -- CPU_WriteMem(4 bytes @ 0xE0002014) -- CPU_WriteMem(4 bytes @ 0xE0002018) -- CPU_WriteMem(4 bytes @ 0xE000201C) -- CPU_WriteMem(4 bytes @ 0xE0001004) (0002ms, 0299ms total)
T2BCC 001:637 JLINK_IsHalted()T-bit of XPSR is 0 but should be 1. Changed to 1.  returns TRUE (0001ms, 0300ms total)
T2BCC 001:638 JLINK_Halt()  returns 0x00 (0001ms, 0300ms total)
T2BCC 001:639 JLINK_IsHalted()  returns TRUE (0000ms, 0300ms total)
T2BCC 001:639 JLINK_IsHalted()  returns TRUE (0000ms, 0300ms total)
T2BCC 001:639 JLINK_IsHalted()  returns TRUE (0000ms, 0300ms total)
T2BCC 001:639 JLINK_ReadReg(R15 (PC))  returns 0x20000004 (0000ms, 0300ms total)
T2BCC 001:639 JLINK_ReadReg(XPSR)  returns 0x41000003 (0000ms, 0300ms total)
T2BCC 001:639 JLINK_ClrBPEx(BPHandle = 0x00000001)  returns 0x00 (0000ms, 0300ms total)
T2BCC 001:639 JLINK_ReadMemU32(0xE000ED30, 0x0001 Items, ...) -- CPU_ReadMem(4 bytes @ 0xE000ED30) - Data: 01 00 00 00  returns 0x01 (0000ms, 0300ms total)
T2BCC 001:639 JLINK_ReadMemU32(0xE0001028, 0x0001 Items, ...) -- CPU_ReadMem(4 bytes @ 0xE0001028) - Data: 00 00 00 00  returns 0x01 (0000ms, 0300ms total)
T2BCC 001:639 JLINK_ReadMemU32(0xE0001038, 0x0001 Items, ...) -- CPU_ReadMem(4 bytes @ 0xE0001038) - Data: 00 02 00 00  returns 0x01 (0000ms, 0300ms total)
T2BCC 001:639 JLINK_ReadMemU32(0xE0001048, 0x0001 Items, ...) -- CPU_ReadMem(4 bytes @ 0xE0001048) - Data: 00 00 00 00  returns 0x01 (0001ms, 0301ms total)
T2BCC 001:640 JLINK_ReadMemU32(0xE0001058, 0x0001 Items, ...) -- CPU_ReadMem(4 bytes @ 0xE0001058) - Data: 00 00 00 00  returns 0x01 (0000ms, 0301ms total)
T2BCC 001:640 JLINK_ReadReg(R0)  returns 0x00000000 (0000ms, 0301ms total)
T2BCC 001:640 JLINK_ReadReg(R1)  returns 0x00000000 (0000ms, 0301ms total)
T2BCC 001:640 JLINK_ReadReg(R2)  returns 0x00000001 (0000ms, 0301ms total)
T2BCC 001:640 JLINK_ReadReg(R3)  returns 0x10030200 (0000ms, 0301ms total)
T2BCC 001:640 JLINK_ReadReg(R4)  returns 0x00000001 (0000ms, 0301ms total)
T2BCC 001:640 JLINK_ReadReg(R5)  returns 0x20000000 (0000ms, 0301ms total)
T2BCC 001:640 JLINK_ReadReg(R6)  returns 0x00000000 (0000ms, 0301ms total)
T2BCC 001:640 JLINK_ReadReg(R7)  returns 0x00000000 (0000ms, 0301ms total)
T2BCC 001:640 JLINK_ReadReg(R8)  returns 0x00000000 (0000ms, 0301ms total)
T2BCC 001:640 JLINK_ReadReg(R9)  returns 0x20000160 (0000ms, 0301ms total)
T2BCC 001:640 JLINK_ReadReg(R10)  returns 0x080007B4 (0000ms, 0301ms total)
T2BCC 001:640 JLINK_ReadReg(R11)  returns 0x00000000 (0000ms, 0301ms total)
T2BCC 001:640 JLINK_ReadReg(R12)  returns 0x00000200 (0000ms, 0301ms total)
T2BCC 001:640 JLINK_ReadReg(R13 (SP))  returns 0x20004FE0 (0000ms, 0301ms total)
T2BCC 001:640 JLINK_ReadReg(R14)  returns 0xFFFFFFF9 (0000ms, 0301ms total)
T2BCC 001:640 JLINK_ReadReg(R15 (PC))  returns 0x20000004 (0000ms, 0301ms total)
T2BCC 001:640 JLINK_ReadReg(XPSR)  returns 0x41000003 (0000ms, 0301ms total)
T2BCC 001:640 JLINK_ReadReg(MSP)  returns 0x20004FE0 (0000ms, 0301ms total)
T2BCC 001:640 JLINK_ReadReg(PSP)  returns 0x20001000 (0000ms, 0301ms total)
T2BCC 001:640 JLINK_ReadReg(CFBP)  returns 0x00000000 (0000ms, 0301ms total)
T2690 001:640 JLINK_ReadMemEx(0x20004FF8, 0x0004 Bytes, ..., Flags = 0x02000000) -- CPU_ReadMem(64 bytes @ 0x20004FC0) -- Updating C cache (64 bytes @ 0x20004FC0) -- Read from C cache (4 bytes @ 0x20004FF8) - Data: 58 0B 00 20  returns 0x04 (0001ms, 0302ms total)
T2690 001:641 JLINK_ReadMemEx(0x20004FFC, 0x0004 Bytes, ..., Flags = 0x02000000) -- Read from C cache (4 bytes @ 0x20004FFC) - Data: 00 00 00 41  returns 0x04 (0000ms, 0302ms total)
T2690 001:641 JLINK_ReadMemEx(0x20004FF4, 0x0004 Bytes, ..., Flags = 0x02000000) -- Read from C cache (4 bytes @ 0x20004FF4) - Data: FF FF FF FF  returns 0x04 (0000ms, 0302ms total)
T2690 001:641 JLINK_ReadMemEx(0xE000ED28, 0x0004 Bytes, ..., Flags = 0x02000000) -- CPU_ReadMem(4 bytes @ 0xE000ED28) - Data: 00 00 03 00  returns 0x04 (0000ms, 0302ms total)
T2690 001:644 JLINK_ReadMemU32(0xE0001004, 0x0001 Items, ...) -- CPU_ReadMem(4 bytes @ 0xE0001004) - Data: 3A 05 00 00  returns 0x01 (0001ms, 0303ms total)
T2690 001:647 JLINK_ReadMemEx(0x20000004, 0x003C Bytes, ..., Flags = 0x02000000) -- CPU_ReadMem(64 bytes @ 0x20000000) -- Updating C cache (64 bytes @ 0x20000000) -- Read from C cache (60 bytes @ 0x20000004) - Data: 00 00 00 00 00 00 00 00 00 00 00 00 00 00 00 00 ...  returns 0x3C (0001ms, 0304ms total)
T2BCC 004:103 JLINK_ReadMemEx(0x20000004, 0x0002 Bytes, ..., Flags = 0x02000000) -- Read from C cache (2 bytes @ 0x20000004) - Data: 00 00  returns 0x02 (0000ms, 0304ms total)
T2BCC 004:103 JLINK_Go() -- CPU_ReadMem(4 bytes @ 0xE0001000) -- CPU_WriteMem(4 bytes @ 0xE0002008) (0002ms, 0306ms total)
T2BCC 004:206 JLINK_IsHalted()  returns TRUE (0001ms, 0307ms total)
T2BCC 004:208 JLINK_Halt()  returns 0x00 (0000ms, 0306ms total)
T2BCC 004:208 JLINK_IsHalted()  returns TRUE (0000ms, 0306ms total)
T2BCC 004:208 JLINK_IsHalted()  returns TRUE (0000ms, 0306ms total)
T2BCC 004:208 JLINK_IsHalted()  returns TRUE (0000ms, 0306ms total)
T2BCC 004:208 JLINK_ReadReg(R15 (PC))  returns 0x20000B58 (0000ms, 0306ms total)
T2BCC 004:208 JLINK_ReadReg(XPSR)  returns 0x41000003 (0000ms, 0306ms total)
T2BCC 004:208 JLINK_ReadMemU32(0xE000ED30, 0x0001 Items, ...) -- CPU_ReadMem(4 bytes @ 0xE000ED30) - Data: 01 00 00 00  returns 0x01 (0000ms, 0306ms total)
T2BCC 004:208 JLINK_ReadMemU32(0xE0001028, 0x0001 Items, ...) -- CPU_ReadMem(4 bytes @ 0xE0001028) - Data: 00 00 00 00  returns 0x01 (0000ms, 0306ms total)
T2BCC 004:208 JLINK_ReadMemU32(0xE0001038, 0x0001 Items, ...) -- CPU_ReadMem(4 bytes @ 0xE0001038) - Data: 00 02 00 00  returns 0x01 (0001ms, 0307ms total)
T2BCC 004:209 JLINK_ReadMemU32(0xE0001048, 0x0001 Items, ...) -- CPU_ReadMem(4 bytes @ 0xE0001048) - Data: 00 00 00 00  returns 0x01 (0000ms, 0307ms total)
T2BCC 004:209 JLINK_ReadMemU32(0xE0001058, 0x0001 Items, ...) -- CPU_ReadMem(4 bytes @ 0xE0001058) - Data: 00 00 00 00  returns 0x01 (0000ms, 0307ms total)
T2BCC 004:209 JLINK_ReadReg(R0)  returns 0x00000000 (0000ms, 0307ms total)
T2BCC 004:209 JLINK_ReadReg(R1)  returns 0x00000000 (0000ms, 0307ms total)
T2BCC 004:209 JLINK_ReadReg(R2)  returns 0x00000001 (0000ms, 0307ms total)
T2BCC 004:209 JLINK_ReadReg(R3)  returns 0x10030200 (0000ms, 0307ms total)
T2BCC 004:209 JLINK_ReadReg(R4)  returns 0x00000001 (0000ms, 0307ms total)
T2BCC 004:209 JLINK_ReadReg(R5)  returns 0x20000000 (0000ms, 0307ms total)
T2BCC 004:209 JLINK_ReadReg(R6)  returns 0x00000000 (0000ms, 0307ms total)
T2BCC 004:209 JLINK_ReadReg(R7)  returns 0x00000000 (0000ms, 0307ms total)
T2BCC 004:209 JLINK_ReadReg(R8)  returns 0x00000000 (0000ms, 0307ms total)
T2BCC 004:209 JLINK_ReadReg(R9)  returns 0x20000160 (0000ms, 0307ms total)
T2BCC 004:209 JLINK_ReadReg(R10)  returns 0x080007B4 (0000ms, 0307ms total)
T2BCC 004:209 JLINK_ReadReg(R11)  returns 0x00000000 (0000ms, 0307ms total)
T2BCC 004:209 JLINK_ReadReg(R12)  returns 0x00000200 (0000ms, 0307ms total)
T2BCC 004:209 JLINK_ReadReg(R13 (SP))  returns 0x20004FE0 (0000ms, 0307ms total)
T2BCC 004:209 JLINK_ReadReg(R14)  returns 0xFFFFFFF9 (0000ms, 0307ms total)
T2BCC 004:209 JLINK_ReadReg(R15 (PC))  returns 0x20000B58 (0000ms, 0307ms total)
T2BCC 004:209 JLINK_ReadReg(XPSR)  returns 0x41000003 (0000ms, 0307ms total)
T2BCC 004:209 JLINK_ReadReg(MSP)  returns 0x20004FE0 (0000ms, 0307ms total)
T2BCC 004:209 JLINK_ReadReg(PSP)  returns 0x20001000 (0000ms, 0307ms total)
T2BCC 004:209 JLINK_ReadReg(CFBP)  returns 0x00000000 (0000ms, 0307ms total)
T2690 004:210 JLINK_ReadMemEx(0x20004FF8, 0x0004 Bytes, ..., Flags = 0x02000000) -- CPU_ReadMem(64 bytes @ 0x20004FC0) -- Updating C cache (64 bytes @ 0x20004FC0) -- Read from C cache (4 bytes @ 0x20004FF8) - Data: 58 0B 00 20  returns 0x04 (0000ms, 0307ms total)
T2690 004:210 JLINK_ReadMemEx(0x20004FFC, 0x0004 Bytes, ..., Flags = 0x02000000) -- Read from C cache (4 bytes @ 0x20004FFC) - Data: 00 00 00 41  returns 0x04 (0000ms, 0307ms total)
T2690 004:210 JLINK_ReadMemEx(0x20004FF4, 0x0004 Bytes, ..., Flags = 0x02000000) -- Read from C cache (4 bytes @ 0x20004FF4) - Data: FF FF FF FF  returns 0x04 (0000ms, 0307ms total)
T2690 004:210 JLINK_ReadMemEx(0xE000ED28, 0x0004 Bytes, ..., Flags = 0x02000000) -- CPU_ReadMem(4 bytes @ 0xE000ED28) - Data: 00 00 03 00  returns 0x04 (0001ms, 0308ms total)
T2690 004:211 JLINK_ReadMemU32(0xE0001004, 0x0001 Items, ...) -- CPU_ReadMem(4 bytes @ 0xE0001004) - Data: F0 3E 0C 00  returns 0x01 (0000ms, 0308ms total)
T2690 004:213 JLINK_ReadMemEx(0x20000B58, 0x003C Bytes, ..., Flags = 0x02000000) -- CPU_ReadMem(128 bytes @ 0x20000B40) -- Updating C cache (128 bytes @ 0x20000B40) -- Read from C cache (60 bytes @ 0x20000B58) - Data: F1 FF FF FF FF 00 00 00 00 00 00 00 0C 00 00 00 ...  returns 0x3C (0001ms, 0309ms total)
T2BCC 005:472 JLINK_ReadMemEx(0x20000B58, 0x0002 Bytes, ..., Flags = 0x02000000) -- Read from C cache (2 bytes @ 0x20000B58) - Data: F1 FF  returns 0x02 (0000ms, 0309ms total)
T2BCC 005:472 JLINK_Go() -- CPU_ReadMem(4 bytes @ 0xE0001000) (0001ms, 0310ms total)
T2BCC 005:574 JLINK_IsHalted()  returns TRUE (0002ms, 0312ms total)
T2BCC 005:576 JLINK_Halt()  returns 0x00 (0000ms, 0310ms total)
T2BCC 005:576 JLINK_IsHalted()  returns TRUE (0000ms, 0310ms total)
T2BCC 005:576 JLINK_IsHalted()  returns TRUE (0000ms, 0310ms total)
T2BCC 005:576 JLINK_IsHalted()  returns TRUE (0000ms, 0310ms total)
T2BCC 005:576 JLINK_ReadReg(R15 (PC))  returns 0x20000B58 (0000ms, 0310ms total)
T2BCC 005:576 JLINK_ReadReg(XPSR)  returns 0x41000003 (0000ms, 0310ms total)
T2BCC 005:576 JLINK_ReadMemU32(0xE000ED30, 0x0001 Items, ...) -- CPU_ReadMem(4 bytes @ 0xE000ED30) - Data: 01 00 00 00  returns 0x01 (0000ms, 0310ms total)
T2BCC 005:576 JLINK_ReadMemU32(0xE0001028, 0x0001 Items, ...) -- CPU_ReadMem(4 bytes @ 0xE0001028) - Data: 00 00 00 00  returns 0x01 (0001ms, 0311ms total)
T2BCC 005:577 JLINK_ReadMemU32(0xE0001038, 0x0001 Items, ...) -- CPU_ReadMem(4 bytes @ 0xE0001038) - Data: 00 02 00 00  returns 0x01 (0000ms, 0311ms total)
T2BCC 005:577 JLINK_ReadMemU32(0xE0001048, 0x0001 Items, ...) -- CPU_ReadMem(4 bytes @ 0xE0001048) - Data: 00 00 00 00  returns 0x01 (0001ms, 0312ms total)
T2BCC 005:578 JLINK_ReadMemU32(0xE0001058, 0x0001 Items, ...) -- CPU_ReadMem(4 bytes @ 0xE0001058) - Data: 00 00 00 00  returns 0x01 (0000ms, 0312ms total)
T2BCC 005:578 JLINK_ReadReg(R0)  returns 0x00000000 (0000ms, 0312ms total)
T2BCC 005:578 JLINK_ReadReg(R1)  returns 0x00000000 (0000ms, 0312ms total)
T2BCC 005:578 JLINK_ReadReg(R2)  returns 0x00000001 (0000ms, 0312ms total)
T2BCC 005:578 JLINK_ReadReg(R3)  returns 0x10030200 (0000ms, 0312ms total)
T2BCC 005:578 JLINK_ReadReg(R4)  returns 0x00000001 (0000ms, 0312ms total)
T2BCC 005:578 JLINK_ReadReg(R5)  returns 0x20000000 (0000ms, 0312ms total)
T2BCC 005:578 JLINK_ReadReg(R6)  returns 0x00000000 (0000ms, 0312ms total)
T2BCC 005:578 JLINK_ReadReg(R7)  returns 0x00000000 (0000ms, 0312ms total)
T2BCC 005:578 JLINK_ReadReg(R8)  returns 0x00000000 (0000ms, 0312ms total)
T2BCC 005:578 JLINK_ReadReg(R9)  returns 0x20000160 (0000ms, 0312ms total)
T2BCC 005:578 JLINK_ReadReg(R10)  returns 0x080007B4 (0000ms, 0312ms total)
T2BCC 005:578 JLINK_ReadReg(R11)  returns 0x00000000 (0000ms, 0312ms total)
T2BCC 005:578 JLINK_ReadReg(R12)  returns 0x00000200 (0000ms, 0312ms total)
T2BCC 005:578 JLINK_ReadReg(R13 (SP))  returns 0x20004FE0 (0000ms, 0312ms total)
T2BCC 005:578 JLINK_ReadReg(R14)  returns 0xFFFFFFF9 (0000ms, 0312ms total)
T2BCC 005:578 JLINK_ReadReg(R15 (PC))  returns 0x20000B58 (0000ms, 0312ms total)
T2BCC 005:578 JLINK_ReadReg(XPSR)  returns 0x41000003 (0000ms, 0312ms total)
T2BCC 005:578 JLINK_ReadReg(MSP)  returns 0x20004FE0 (0000ms, 0312ms total)
T2BCC 005:578 JLINK_ReadReg(PSP)  returns 0x20001000 (0000ms, 0312ms total)
T2BCC 005:578 JLINK_ReadReg(CFBP)  returns 0x00000000 (0000ms, 0312ms total)
T2690 005:579 JLINK_ReadMemEx(0x20004FF8, 0x0004 Bytes, ..., Flags = 0x02000000) -- CPU_ReadMem(64 bytes @ 0x20004FC0) -- Updating C cache (64 bytes @ 0x20004FC0) -- Read from C cache (4 bytes @ 0x20004FF8) - Data: 58 0B 00 20  returns 0x04 (0000ms, 0312ms total)
T2690 005:579 JLINK_ReadMemEx(0x20004FFC, 0x0004 Bytes, ..., Flags = 0x02000000) -- Read from C cache (4 bytes @ 0x20004FFC) - Data: 00 00 00 41  returns 0x04 (0000ms, 0312ms total)
T2690 005:579 JLINK_ReadMemEx(0x20004FF4, 0x0004 Bytes, ..., Flags = 0x02000000) -- Read from C cache (4 bytes @ 0x20004FF4) - Data: FF FF FF FF  returns 0x04 (0000ms, 0312ms total)
T2690 005:579 JLINK_ReadMemEx(0xE000ED28, 0x0004 Bytes, ..., Flags = 0x02000000) -- CPU_ReadMem(4 bytes @ 0xE000ED28) - Data: 00 00 03 00  returns 0x04 (0001ms, 0313ms total)
T2690 005:580 JLINK_ReadMemU32(0xE0001004, 0x0001 Items, ...) -- CPU_ReadMem(4 bytes @ 0xE0001004) - Data: 44 80 18 00  returns 0x01 (0000ms, 0313ms total)
T2690 008:070 JLINK_Close() -- CPU_ReadMem(4 bytes @ 0xE0001000) >0x0D TIF> >0x28 TIF> >0x0D TIF> >0x28 TIF> >0x0D TIF> >0x28 TIF> >0x0D TIF> >0x28 TIF> >0x0D TIF> >0x28 TIF> >0x0D TIF> >0x28 TIF> >0x0D TIF> >0x28 TIF> >0x0D TIF> >0x28 TIF> >0x0D TIF> >0x21 TIF> >0x0D TIF> >0x28 TIF> (0022ms, 0335ms total)
T2690 008:070  (0022ms, 0335ms total)
T2690 008:070 Closed (0022ms, 0335ms total)
